Time [s], Analyzer Name, Decoded Protocol Result
17.277315750000000,I2C,Setup Write to [0x80] + NAK
17.284421250000001,I2C,Setup Write to [0x80] + NAK
17.289340500000002,I2C,Setup Write to [0x40] + ACK
17.294293000000000,I2C,Setup Write to [0x40] + ACK
17.299206750000000,I2C,Setup Write to [0x20] + NAK
17.304203749999999,I2C,Setup Write to [0x20] + NAK
17.309105750000001,I2C,Setup Write to [0x1A] + ACK
17.309197500000000,I2C,0x18 + ACK
17.309289000000000,I2C,0x09 + NAK
17.309380500000000,I2C,0x46 + NAK
17.309483749999998,I2C,0x40 + ACK
17.309701749999999,I2C,Setup Write to [0x60] + NAK
17.314688499999999,I2C,Setup Write to [0x30] + ACK
17.319597500000000,I2C,Setup Write to [0x30] + ACK
17.324593000000000,I2C,Setup Write to [0x30] + ACK
17.329484999999998,I2C,Setup Write to [0x60] + NAK
17.334434500000000,I2C,Setup Write to [0x60] + NAK
17.339309499999999,I2C,Setup Write to [0x60] + NAK
17.344306499999998,I2C,Setup Write to [0x30] + ACK
17.349189500000001,I2C,Setup Write to [0x30] + ACK
17.354213500000000,I2C,Setup Write to [0x32] + ACK
17.359116250000000,I2C,Setup Write to [0x60] + NAK
17.364112250000002,I2C,Setup Write to [0x60] + NAK
17.431984000000000,I2C,Setup Write to [0x64] + NAK
17.436868250000000,I2C,Setup Write to [0x30] + ACK
17.441737499999999,I2C,Setup Write to [0x30] + ACK
17.446735000000000,I2C,Setup Write to [0x60] + NAK
17.451641500000001,I2C,Setup Write to [0x1A] + ACK
17.451733000000001,I2C,0x18 + NAK
17.451824750000000,I2C,0x6E + ACK
17.451916250000000,I2C,0x46 + NAK
17.452019000000000,I2C,0x40 + ACK
17.452303749999999,I2C,Setup Write to [0x34] + ACK
17.452395249999999,I2C,0x31 + ACK
17.452486749999998,I2C,0xDC + ACK
17.452610000000000,I2C,Setup Read to [0x35] + ACK
17.452701749999999,I2C,0x01 + NAK
17.452885999999999,I2C,Setup Write to [0x34] + ACK
17.452977499999999,I2C,0x31 + ACK
17.453069249999999,I2C,0xDC + ACK
17.453192250000001,I2C,Setup Read to [0x35] + ACK
17.453283750000001,I2C,0x01 + NAK
17.626404250000000,I2C,Setup Write to [0x34] + ACK
17.626495750000000,I2C,0x30 + ACK
17.626587499999999,I2C,0x00 + ACK
17.626678999999999,I2C,0x01 + ACK
17.742105750000000,I2C,Setup Write to [0x34] + ACK
17.742197250000000,I2C,0x30 + ACK
17.742288750000000,I2C,0x07 + ACK
17.742380499999999,I2C,0x00 + ACK
17.742591749999999,I2C,Setup Write to [0x34] + ACK
17.742683249999999,I2C,0x30 + ACK
17.742774749999999,I2C,0x09 + ACK
17.742866500000002,I2C,0x01 + ACK
17.743053000000000,I2C,Setup Write to [0x34] + ACK
17.743144500000000,I2C,0x30 + ACK
17.743236249999999,I2C,0x0A + ACK
17.743327749999999,I2C,0xF0 + ACK
17.743511000000002,I2C,Setup Write to [0x1A] + ACK
17.743602750000001,I2C,0x18 + ACK
17.743694250000001,I2C,0x07 + NAK
17.743785750000001,I2C,0x00 + ACK
17.743977749999999,I2C,Setup Write to [0x1A] + ACK
17.744069249999999,I2C,0x18 + ACK
17.744160999999998,I2C,0x08 + ACK
17.744252500000002,I2C,0x10 + NAK
17.744448250000001,I2C,Setup Write to [0x34] + ACK
17.744539750000001,I2C,0x30 + ACK
17.744631250000001,I2C,0x12 + ACK
17.744723000000000,I2C,0x64 + ACK
17.744914999999999,I2C,Setup Write to [0x34] + ACK
17.745006499999999,I2C,0x30 + ACK
17.745097999999999,I2C,0x14 + ACK
17.745189750000002,I2C,0x20 + ACK
17.745380999999998,I2C,Setup Write to [0x34] + ACK
17.745472500000002,I2C,0x30 + ACK
17.745564250000001,I2C,0x16 + ACK
17.745655750000001,I2C,0x09 + ACK
17.745841250000002,I2C,Setup Write to [0x34] + ACK
17.745932750000001,I2C,0x30 + ACK
17.746024250000001,I2C,0x16 + ACK
17.746116000000001,I2C,0x09 + ACK
17.746307250000001,I2C,Setup Write to [0x34] + ACK
17.746398750000001,I2C,0x30 + ACK
17.746490250000001,I2C,0x18 + ACK
17.746582000000000,I2C,0x65 + ACK
17.746773500000000,I2C,Setup Write to [0x34] + ACK
17.746865000000000,I2C,0x30 + ACK
17.746956500000000,I2C,0x19 + ACK
17.747048249999999,I2C,0x04 + ACK
17.747233500000000,I2C,Setup Write to [0x34] + ACK
17.747325000000000,I2C,0x30 + ACK
17.747416749999999,I2C,0x1A + ACK
17.747508249999999,I2C,0x00 + ACK
17.747699999999998,I2C,Setup Write to [0x34] + ACK
17.747791500000002,I2C,0x30 + ACK
17.747883000000002,I2C,0x1B + ACK
17.747974750000001,I2C,0x00 + ACK
17.748156000000002,I2C,Setup Write to [0x1A] + ACK
17.748247500000002,I2C,0x18 + ACK
17.748339250000001,I2C,0x0E + ACK
17.748430750000001,I2C,0x4C + ACK
17.748626500000000,I2C,Setup Write to [0x34] + ACK
17.748718000000000,I2C,0x30 + ACK
17.748809749999999,I2C,0x1D + ACK
17.748901249999999,I2C,0x08 + ACK
17.749092500000000,I2C,Setup Write to [0x34] + ACK
17.749184000000000,I2C,0x30 + ACK
17.749275749999999,I2C,0x20 + ACK
17.749367249999999,I2C,0x01 + ACK
17.749559000000001,I2C,Setup Write to [0x34] + ACK
17.749650500000001,I2C,0x30 + ACK
17.749742000000001,I2C,0x21 + ACK
17.749833750000001,I2C,0x00 + ACK
17.750009250000002,I2C,Setup Write to [0x1A] + ACK
17.750100750000001,I2C,0x18 + ACK
17.750192500000001,I2C,0x23 + ACK
17.750284000000001,I2C,0x70 + NAK
17.750485749999999,I2C,Setup Write to [0x34] + ACK
17.750577499999999,I2C,0x30 + ACK
17.750668999999998,I2C,0x5C + ACK
17.750760499999998,I2C,0x18 + ACK
17.750952000000002,I2C,Setup Write to [0x34] + ACK
17.751043500000002,I2C,0x30 + ACK
17.751135250000001,I2C,0x5E + ACK
17.751226750000001,I2C,0x20 + ACK
17.751411999999998,I2C,Setup Write to [0x34] + ACK
17.751503750000001,I2C,0x30 + ACK
17.751595250000001,I2C,0x70 + ACK
17.751687000000000,I2C,0x02 + ACK
17.751878500000000,I2C,Setup Write to [0x34] + ACK
17.751970000000000,I2C,0x30 + ACK
17.752061500000000,I2C,0x71 + ACK
17.752153249999999,I2C,0x11 + ACK
17.752497999999999,I2C,Setup Write to [0x1A] + ACK
17.752589499999999,I2C,0x18 + ACK
17.752681249999998,I2C,0x4D + NAK
17.752772749999998,I2C,0x08 + ACK
17.752987250000000,I2C,Setup Write to [0x34] + ACK
17.753078750000000,I2C,0x30 + ACK
17.753170250000000,I2C,0x9C + ACK
17.753261999999999,I2C,0x22 + ACK
17.753447749999999,I2C,Setup Write to [0x34] + ACK
17.753539249999999,I2C,0x30 + ACK
17.753630749999999,I2C,0xA2 + ACK
17.753722499999999,I2C,0x02 + ACK
17.753914500000000,I2C,Setup Write to [0x34] + ACK
17.754006250000000,I2C,0x30 + ACK
17.754097750000000,I2C,0xA6 + ACK
17.754189250000000,I2C,0x20 + ACK
17.754381500000001,I2C,Setup Write to [0x34] + ACK
17.754473000000001,I2C,0x30 + ACK
17.754564500000001,I2C,0xA8 + ACK
17.754656250000000,I2C,0x20 + ACK
17.754831249999999,I2C,Setup Write to [0x1A] + ACK
17.754922749999999,I2C,0x18 + ACK
17.755014500000001,I2C,0x55 + ACK
17.755106000000001,I2C,0x10 + ACK
17.755307750000000,I2C,Setup Write to [0x34] + ACK
17.755399250000000,I2C,0x30 + ACK
17.755490750000000,I2C,0xAC + ACK
17.755582499999999,I2C,0x20 + ACK
17.755773999999999,I2C,Setup Write to [0x34] + ACK
17.755865499999999,I2C,0x30 + ACK
17.755957250000002,I2C,0xB0 + ACK
17.756048750000001,I2C,0x43 + ACK
17.756223750000000,I2C,Setup Write to [0x1A] + ACK
17.756315250000000,I2C,0x18 + NAK
17.756406750000000,I2C,0x0C + NAK
17.756498499999999,I2C,0x4F + ACK
17.756689750000000,I2C,Setup Write to [0x1A] + ACK
17.756781250000000,I2C,0x18 + NAK
17.756872999999999,I2C,0x0E + ACK
17.756964499999999,I2C,0x0F + ACK
17.757166000000002,I2C,Setup Write to [0x34] + ACK
17.757257500000001,I2C,0x31 + ACK
17.757349000000001,I2C,0x1E + ACK
17.757440750000001,I2C,0x08 + ACK
17.757625999999998,I2C,Setup Write to [0x34] + ACK
17.757717499999998,I2C,0x31 + ACK
17.757809000000002,I2C,0x28 + ACK
17.757900750000001,I2C,0x05 + ACK
17.758092500000000,I2C,Setup Write to [0x34] + ACK
17.758184000000000,I2C,0x31 + ACK
17.758275500000000,I2C,0x3D + ACK
17.758367249999999,I2C,0x83 + ACK
17.758548500000000,I2C,Setup Write to [0x1A] + ACK
17.758640000000000,I2C,0x18 + NAK
17.758731500000000,I2C,0x28 + ACK
17.758823249999999,I2C,0x01 + NAK
17.759018749999999,I2C,Setup Write to [0x34] + ACK
17.759110499999998,I2C,0x31 + ACK
17.759201999999998,I2C,0x5E + ACK
17.759293499999998,I2C,0x1A + ACK
17.759474749999999,I2C,Setup Write to [0x1A] + ACK
17.759566249999999,I2C,0x18 + NAK
17.759658000000002,I2C,0x32 + ACK
17.759749500000002,I2C,0x0D + ACK
17.759940749999998,I2C,Setup Write to [0x1A] + ACK
17.760032249999998,I2C,0x18 + NAK
17.760124000000001,I2C,0x3E + ACK
17.760215500000001,I2C,0x00 + ACK
17.760411500000000,I2C,Setup Write to [0x34] + ACK
17.760503000000000,I2C,0x31 + ACK
17.760594500000000,I2C,0x7E + ACK
17.760686249999999,I2C,0x00 + ACK
17.760877499999999,I2C,Setup Write to [0x34] + ACK
17.760968999999999,I2C,0x31 + ACK
17.761060749999999,I2C,0x7E + ACK
17.761152249999999,I2C,0x00 + ACK
17.761343499999999,I2C,Setup Write to [0x34] + ACK
17.761434999999999,I2C,0x32 + ACK
17.761526750000002,I2C,0xB8 + ACK
17.761618250000001,I2C,0x50 + ACK
17.761793749999999,I2C,Setup Write to [0x1A] + ACK
17.761885249999999,I2C,0x19 + ACK
17.761976749999999,I2C,0x5C + NAK
17.762068500000002,I2C,0x08 + ACK
17.762376750000001,I2C,Setup Write to [0x34] + ACK
17.762468250000001,I2C,0x32 + ACK
17.762560000000001,I2C,0xBA + ACK
17.762651500000000,I2C,0x00 + ACK
17.762852250000002,I2C,Setup Write to [0x34] + ACK
17.762943750000002,I2C,0x32 + ACK
17.763035250000001,I2C,0xBB + ACK
17.763127000000001,I2C,0x04 + ACK
17.763312249999998,I2C,Setup Write to [0x34] + ACK
17.763404000000001,I2C,0x32 + ACK
17.763495500000001,I2C,0xC8 + ACK
17.763587250000000,I2C,0x50 + ACK
17.763779249999999,I2C,Setup Write to [0x34] + ACK
17.763871000000002,I2C,0x32 + ACK
17.763962500000002,I2C,0xC9 + ACK
17.764054250000001,I2C,0x10 + ACK
17.764246000000000,I2C,Setup Write to [0x34] + ACK
17.764337500000000,I2C,0x32 + ACK
17.764429249999999,I2C,0xCA + ACK
17.764520749999999,I2C,0x00 + ACK
17.764696250000000,I2C,Setup Write to [0x1A] + ACK
17.764787750000000,I2C,0x19 + ACK
17.764879250000000,I2C,0x65 + NAK
17.764970999999999,I2C,0x02 + ACK
17.765172249999999,I2C,Setup Write to [0x34] + ACK
17.765263999999998,I2C,0x33 + ACK
17.765355499999998,I2C,0x2C + ACK
17.765447000000002,I2C,0xD3 + ACK
17.765638500000001,I2C,Setup Write to [0x34] + ACK
17.765730000000001,I2C,0x33 + ACK
17.765821500000001,I2C,0x2D + ACK
17.765913250000001,I2C,0x10 + ACK
17.766098750000001,I2C,Setup Write to [0x34] + ACK
17.766190500000000,I2C,0x33 + ACK
17.766282000000000,I2C,0x2E + ACK
17.766373500000000,I2C,0x0D + ACK
17.766564750000001,I2C,Setup Write to [0x34] + ACK
17.766656250000000,I2C,0x33 + ACK
17.766747750000000,I2C,0x58 + ACK
17.766839500000000,I2C,0x06 + ACK
17.767035249999999,I2C,Setup Write to [0x34] + ACK
17.767126999999999,I2C,0x33 + ACK
17.767218499999998,I2C,0x59 + ACK
17.767309999999998,I2C,0xE1 + ACK
17.767495749999998,I2C,Setup Write to [0x34] + ACK
17.767587500000001,I2C,0x33 + ACK
17.767679000000001,I2C,0x5A + ACK
17.767770500000001,I2C,0x11 + ACK
17.767952000000001,I2C,Setup Write to [0x1A] + ACK
17.768043500000001,I2C,0x19 + NAK
17.768135250000000,I2C,0x30 + ACK
17.768226750000000,I2C,0x0F + ACK
17.768428499999999,I2C,Setup Write to [0x34] + ACK
17.768519999999999,I2C,0x33 + ACK
17.768611499999999,I2C,0x61 + ACK
17.768703250000002,I2C,0x61 + ACK
17.768888499999999,I2C,Setup Write to [0x34] + ACK
17.768980249999998,I2C,0x33 + ACK
17.769071749999998,I2C,0x62 + ACK
17.769163500000001,I2C,0x10 + ACK
17.769344499999999,I2C,Setup Write to [0x1A] + ACK
17.769436249999998,I2C,0x19 + NAK
17.769527750000002,I2C,0x58 + ACK
17.769619250000002,I2C,0x28 + ACK
17.769821000000000,I2C,Setup Write to [0x34] + ACK
17.769912500000000,I2C,0x33 + ACK
17.770004000000000,I2C,0xB2 + ACK
17.770095749999999,I2C,0x1A + ACK
17.770281250000000,I2C,Setup Write to [0x34] + ACK
17.770372750000000,I2C,0x33 + ACK
17.770464250000000,I2C,0xB3 + ACK
17.770555999999999,I2C,0x04 + ACK
17.802091250000000,I2C,Setup Write to [0x34] + ACK
17.802182999999999,I2C,0x30 + ACK
17.802274499999999,I2C,0x00 + ACK
17.802366249999999,I2C,0x00 + ACK
17.802565749999999,I2C,Setup Write to [0x1A] + ACK
17.802657499999999,I2C,0x18 + ACK
17.802748999999999,I2C,0x01 + ACK
17.802840499999999,I2C,0x00 + ACK
17.803044000000000,I2C,Setup Write to [0x34] + ACK
17.803135749999999,I2C,0x30 + ACK
17.803227249999999,I2C,0x49 + ACK
17.803318999999998,I2C,0x0A + ACK
17.918834499999999,I2C,Setup Write to [0x34] + ACK
17.918925999999999,I2C,0x30 + ACK
17.919017499999999,I2C,0x20 + ACK
17.919109250000002,I2C,0x03 + ACK
17.919295500000000,I2C,Setup Write to [0x34] + ACK
17.919387000000000,I2C,0x30 + ACK
17.919478500000000,I2C,0x21 + ACK
17.919570250000000,I2C,0x00 + ACK
17.919743250000000,I2C,Setup Write to [0x1A] + ACK
17.919834999999999,I2C,0x18 + ACK
17.919926499999999,I2C,0x11 + ACK
17.920017999999999,I2C,0x00 + ACK
17.920201250000002,I2C,Setup Write to [0x1A] + ACK
17.920293000000001,I2C,0x18 + ACK
17.920384500000001,I2C,0x0A + ACK
17.920476000000001,I2C,0x04 + NAK
17.920660000000002,I2C,Setup Write to [0x1A] + ACK
17.920751500000001,I2C,0x18 + ACK
17.920843250000001,I2C,0x0C + ACK
17.920934750000001,I2C,0x23 + NAK
17.921128249999999,I2C,Setup Write to [0x34] + ACK
17.921220000000002,I2C,0x30 + ACK
17.921311500000002,I2C,0x19 + ACK
17.921403000000002,I2C,0x05 + ACK
17.921586500000000,I2C,Setup Write to [0x34] + ACK
17.921678000000000,I2C,0x30 + ACK
17.921769500000000,I2C,0x1A + ACK
17.921861249999999,I2C,0x00 + ACK
17.935490999999999,I2C,Setup Write to [0x34] + ACK
17.935582749999998,I2C,0x30 + ACK
17.935674250000002,I2C,0x09 + ACK
17.935765750000002,I2C,0x01 + ACK
17.935942250000000,I2C,Setup Write to [0x1A] + ACK
17.936033750000000,I2C,0x18 + ACK
17.936125499999999,I2C,0x10 + ACK
17.936216999999999,I2C,0x01 + NAK
17.936411499999998,I2C,Setup Write to [0x34] + ACK
17.936502999999998,I2C,0x30 + ACK
17.936594500000002,I2C,0x21 + ACK
17.936686250000001,I2C,0x00 + ACK
17.936859750000000,I2C,Setup Write to [0x1A] + ACK
17.936951250000000,I2C,0x18 + ACK
17.937042999999999,I2C,0x11 + ACK
17.937134499999999,I2C,0x00 + ACK
17.937784749999999,I2C,Setup Write to [0x1A] + ACK
17.937876500000002,I2C,0x18 + ACK
17.937968000000001,I2C,0x04 + NAK
17.938059500000001,I2C,0x00 + NAK
17.938255250000001,I2C,Setup Write to [0x34] + ACK
17.938346750000001,I2C,0x30 + ACK
17.938438250000001,I2C,0x20 + ACK
17.938530000000000,I2C,0x03 + ACK
17.938713249999999,I2C,Setup Write to [0x34] + ACK
17.938804749999999,I2C,0x30 + ACK
17.938896249999999,I2C,0x21 + ACK
17.938987999999998,I2C,0x00 + ACK
17.939171000000002,I2C,Setup Write to [0x34] + ACK
17.939262500000002,I2C,0x30 + ACK
17.939354250000001,I2C,0x22 + ACK
17.939445750000001,I2C,0x00 + ACK
17.939647999999998,I2C,Setup Write to [0x34] + ACK
17.939739750000001,I2C,0x30 + ACK
17.939831250000001,I2C,0x09 + ACK
17.939922750000001,I2C,0x01 + ACK
17.940095750000001,I2C,Setup Write to [0x1A] + ACK
17.940187500000000,I2C,0x18 + ACK
17.940279000000000,I2C,0x10 + ACK
17.940370500000000,I2C,0x01 + NAK
17.940553749999999,I2C,Setup Write to [0x1A] + ACK
17.940645249999999,I2C,0x18 + ACK
17.940736999999999,I2C,0x10 + NAK
17.940828499999999,I2C,0x00 + ACK
17.941022000000000,I2C,Setup Write to [0x34] + ACK
17.941113500000000,I2C,0x30 + ACK
17.941205249999999,I2C,0x22 + ACK
17.941296749999999,I2C,0x00 + ACK
17.955531499999999,I2C,Setup Write to [0x34] + ACK
17.955623249999999,I2C,0x30 + ACK
17.955714749999999,I2C,0x20 + ACK
17.955806249999998,I2C,0x03 + ACK
17.955992250000001,I2C,Setup Write to [0x34] + ACK
17.956084000000001,I2C,0x30 + ACK
17.956175500000001,I2C,0x21 + ACK
17.956267000000000,I2C,0x00 + ACK
17.956450499999999,I2C,Setup Write to [0x34] + ACK
17.956541999999999,I2C,0x30 + ACK
17.956633499999999,I2C,0x22 + ACK
17.956725250000002,I2C,0x00 + ACK
17.975532000000001,I2C,Setup Write to [0x34] + ACK
17.975623500000001,I2C,0x30 + ACK
17.975715000000001,I2C,0x20 + ACK
17.975806750000000,I2C,0x03 + ACK
17.975982250000001,I2C,Setup Write to [0x1A] + ACK
17.976074000000001,I2C,0x18 + ACK
17.976165500000000,I2C,0x10 + NAK
17.976257000000000,I2C,0x00 + ACK
17.976450750000001,I2C,Setup Write to [0x34] + ACK
17.976542250000001,I2C,0x30 + ACK
17.976633750000001,I2C,0x22 + ACK
17.976725500000001,I2C,0x00 + ACK
17.977376000000000,I2C,Setup Write to [0x34] + ACK
17.977467499999999,I2C,0x30 + ACK
17.977559249999999,I2C,0x20 + ACK
17.977650749999999,I2C,0x03 + ACK
17.977836750000002,I2C,Setup Write to [0x34] + ACK
17.977928250000001,I2C,0x30 + ACK
17.978020000000001,I2C,0x21 + ACK
17.978111500000001,I2C,0x00 + ACK
17.978284500000001,I2C,Setup Write to [0x1A] + ACK
17.978376250000000,I2C,0x18 + ACK
17.978467750000000,I2C,0x11 + ACK
17.978559250000000,I2C,0x00 + ACK
17.978771999999999,I2C,Setup Write to [0x34] + ACK
17.978863499999999,I2C,0x30 + ACK
17.978954999999999,I2C,0x20 + ACK
17.979046749999998,I2C,0x03 + ACK
17.979230000000001,I2C,Setup Write to [0x34] + ACK
17.979321500000001,I2C,0x30 + ACK
17.979413000000001,I2C,0x21 + ACK
17.979504750000000,I2C,0x00 + ACK
17.979687750000000,I2C,Setup Write to [0x34] + ACK
17.979779499999999,I2C,0x30 + ACK
17.979870999999999,I2C,0x22 + ACK
17.979962749999999,I2C,0x00 + ACK
17.995573749999998,I2C,Setup Write to [0x34] + ACK
17.995665249999998,I2C,0x30 + ACK
17.995756750000002,I2C,0x20 + ACK
17.995848500000001,I2C,0x03 + ACK
17.996034250000001,I2C,Setup Write to [0x34] + ACK
17.996126000000000,I2C,0x30 + ACK
17.996217500000000,I2C,0x21 + ACK
17.996309000000000,I2C,0x00 + ACK
17.996492499999999,I2C,Setup Write to [0x34] + ACK
17.996583999999999,I2C,0x30 + ACK
17.996675499999998,I2C,0x22 + ACK
17.996767250000001,I2C,0x00 + ACK
18.015559750000001,I2C,Setup Write to [0x1A] + ACK
18.015651250000001,I2C,0x18 + ACK
18.015743000000001,I2C,0x10 + ACK
18.015834500000000,I2C,0x01 + NAK
18.016030749999999,I2C,Setup Write to [0x34] + ACK
18.016122249999999,I2C,0x30 + ACK
18.016213749999999,I2C,0x21 + ACK
18.016305500000001,I2C,0x00 + ACK
18.016488750000001,I2C,Setup Write to [0x34] + ACK
18.016580500000000,I2C,0x30 + ACK
18.016672000000000,I2C,0x22 + ACK
18.016763500000000,I2C,0x00 + ACK
18.017401499999998,I2C,Setup Write to [0x1A] + ACK
18.017493000000002,I2C,0x18 + ACK
18.017584750000001,I2C,0x10 + ACK
18.017676250000001,I2C,0x01 + NAK
18.017871750000001,I2C,Setup Write to [0x34] + ACK
18.017963250000001,I2C,0x30 + ACK
18.018055000000000,I2C,0x21 + ACK
18.018146500000000,I2C,0x00 + ACK
18.018319750000000,I2C,Setup Write to [0x1A] + ACK
18.018411250000000,I2C,0x18 + ACK
18.018502750000000,I2C,0x11 + ACK
18.018594499999999,I2C,0x00 + ACK
18.018809749999999,I2C,Setup Write to [0x34] + ACK
18.018901499999998,I2C,0x30 + ACK
18.018992999999998,I2C,0x20 + ACK
18.019084500000002,I2C,0x03 + ACK
18.019268000000000,I2C,Setup Write to [0x34] + ACK
18.019359750000000,I2C,0x30 + ACK
18.019451249999999,I2C,0x21 + ACK
18.019542749999999,I2C,0x00 + ACK
18.019715750000000,I2C,Setup Write to [0x1A] + ACK
18.019807499999999,I2C,0x18 + ACK
18.019898999999999,I2C,0x11 + ACK
18.019990499999999,I2C,0x00 + ACK
18.035609250000000,I2C,Setup Write to [0x34] + ACK
18.035700750000000,I2C,0x30 + ACK
18.035792250000000,I2C,0x20 + ACK
18.035883999999999,I2C,0x03 + ACK
18.036069999999999,I2C,Setup Write to [0x34] + ACK
18.036161499999999,I2C,0x30 + ACK
18.036252999999999,I2C,0x21 + ACK
18.036344750000001,I2C,0x00 + ACK
18.036528000000001,I2C,Setup Write to [0x34] + ACK
18.036619750000000,I2C,0x30 + ACK
18.036711250000000,I2C,0x22 + ACK
18.036802750000000,I2C,0x00 + ACK
18.055590250000002,I2C,Setup Write to [0x1A] + ACK
18.055682000000001,I2C,0x18 + ACK
18.055773500000001,I2C,0x10 + ACK
18.055865000000001,I2C,0x01 + NAK
18.056061750000001,I2C,Setup Write to [0x34] + ACK
18.056153250000001,I2C,0x30 + ACK
18.056245000000001,I2C,0x21 + ACK
18.056336500000000,I2C,0x00 + ACK
18.056510249999999,I2C,Setup Write to [0x1A] + ACK
18.056601749999999,I2C,0x18 + ACK
18.056693500000002,I2C,0x11 + ACK
18.056785000000001,I2C,0x00 + ACK
18.057436500000001,I2C,Setup Write to [0x34] + ACK
18.057528000000001,I2C,0x30 + ACK
18.057619500000001,I2C,0x20 + ACK
18.057711250000001,I2C,0x03 + ACK
18.057896499999998,I2C,Setup Write to [0x34] + ACK
18.057988000000002,I2C,0x30 + ACK
18.058079750000001,I2C,0x21 + ACK
18.058171250000001,I2C,0x00 + ACK
18.058354500000000,I2C,Setup Write to [0x34] + ACK
18.058446000000000,I2C,0x30 + ACK
18.058537749999999,I2C,0x22 + ACK
18.058629249999999,I2C,0x00 + ACK
18.058820999999998,I2C,Setup Write to [0x1A] + ACK
18.058912500000002,I2C,0x18 + ACK
18.059004250000001,I2C,0x10 + ACK
18.059095750000001,I2C,0x01 + NAK
18.059289249999999,I2C,Setup Write to [0x34] + ACK
18.059380749999999,I2C,0x30 + ACK
18.059472249999999,I2C,0x21 + ACK
18.059564000000002,I2C,0x00 + ACK
18.059747250000001,I2C,Setup Write to [0x34] + ACK
18.059838750000001,I2C,0x30 + ACK
18.059930250000001,I2C,0x22 + ACK
18.060022000000000,I2C,0x00 + ACK
18.075633000000000,I2C,Setup Write to [0x34] + ACK
18.075724500000000,I2C,0x30 + ACK
18.075816000000000,I2C,0x20 + ACK
18.075907749999999,I2C,0x03 + ACK
18.076094000000001,I2C,Setup Write to [0x34] + ACK
18.076185500000001,I2C,0x30 + ACK
18.076277000000001,I2C,0x21 + ACK
18.076368750000000,I2C,0x00 + ACK
18.076541750000001,I2C,Setup Write to [0x1A] + ACK
18.076633250000000,I2C,0x18 + ACK
18.076725000000000,I2C,0x11 + ACK
18.076816500000000,I2C,0x00 + ACK
18.095632999999999,I2C,Setup Write to [0x34] + ACK
18.095724499999999,I2C,0x30 + ACK
18.095816249999999,I2C,0x20 + ACK
18.095907749999999,I2C,0x03 + ACK
18.096083499999999,I2C,Setup Write to [0x1A] + ACK
18.096174999999999,I2C,0x18 + ACK
18.096266750000002,I2C,0x10 + NAK
18.096358250000002,I2C,0x00 + ACK
18.096541500000001,I2C,Setup Write to [0x1A] + ACK
18.096633000000001,I2C,0x18 + ACK
18.096724750000000,I2C,0x11 + ACK
18.096816250000000,I2C,0x00 + ACK
18.097488999999999,I2C,Setup Write to [0x34] + ACK
18.097580499999999,I2C,0x30 + ACK
18.097672249999999,I2C,0x20 + ACK
18.097763749999999,I2C,0x03 + ACK
18.097939000000000,I2C,Setup Write to [0x1A] + ACK
18.098030500000000,I2C,0x18 + ACK
18.098122249999999,I2C,0x10 + NAK
18.098213749999999,I2C,0x00 + ACK
18.098396999999999,I2C,Setup Write to [0x1A] + ACK
18.098488499999998,I2C,0x18 + ACK
18.098580250000001,I2C,0x11 + ACK
18.098671750000001,I2C,0x00 + ACK
18.098884750000000,I2C,Setup Write to [0x34] + ACK
18.098976499999999,I2C,0x30 + ACK
18.099067999999999,I2C,0x20 + ACK
18.099159749999998,I2C,0x03 + ACK
18.099332749999999,I2C,Setup Write to [0x1A] + ACK
18.099424500000001,I2C,0x18 + ACK
18.099516000000001,I2C,0x10 + NAK
18.099607500000001,I2C,0x00 + ACK
18.099790750000000,I2C,Setup Write to [0x1A] + ACK
18.099882500000000,I2C,0x18 + ACK
18.099974000000000,I2C,0x11 + ACK
18.100065499999999,I2C,0x00 + ACK
18.115671750000001,I2C,Setup Write to [0x34] + ACK
18.115763250000001,I2C,0x30 + ACK
18.115854750000000,I2C,0x20 + ACK
18.115946500000000,I2C,0x03 + ACK
18.116122749999999,I2C,Setup Write to [0x1A] + ACK
18.116214500000002,I2C,0x18 + ACK
18.116306000000002,I2C,0x10 + NAK
18.116397500000001,I2C,0x00 + ACK
18.116591249999999,I2C,Setup Write to [0x34] + ACK
18.116682749999999,I2C,0x30 + ACK
18.116774249999999,I2C,0x22 + ACK
18.116866000000002,I2C,0x00 + ACK
18.117049250000001,I2C,Setup Write to [0x34] + ACK
18.117140750000001,I2C,0x30 + ACK
18.117232250000001,I2C,0x14 + ACK
18.117324000000000,I2C,0x07 + ACK
18.135670749999999,I2C,Setup Write to [0x34] + ACK
18.135762249999999,I2C,0x30 + ACK
18.135853999999998,I2C,0x20 + ACK
18.135945499999998,I2C,0x03 + ACK
18.136121750000001,I2C,Setup Write to [0x1A] + ACK
18.136213500000000,I2C,0x18 + ACK
18.136305000000000,I2C,0x10 + NAK
18.136396500000000,I2C,0x00 + ACK
18.136590500000001,I2C,Setup Write to [0x34] + ACK
18.136682250000000,I2C,0x30 + ACK
18.136773750000000,I2C,0x22 + ACK
18.136865499999999,I2C,0x00 + ACK
18.137498999999998,I2C,Setup Write to [0x1A] + ACK
18.137590500000002,I2C,0x18 + ACK
18.137682250000001,I2C,0x10 + ACK
18.137773750000001,I2C,0x01 + NAK
18.137969250000001,I2C,Setup Write to [0x34] + ACK
18.138060750000001,I2C,0x30 + ACK
18.138152250000001,I2C,0x21 + ACK
18.138244000000000,I2C,0x00 + ACK
18.138427249999999,I2C,Setup Write to [0x34] + ACK
18.138518749999999,I2C,0x30 + ACK
18.138610249999999,I2C,0x22 + ACK
18.138701999999999,I2C,0x00 + ACK
18.138903500000001,I2C,Setup Write to [0x34] + ACK
18.138995000000001,I2C,0x30 + ACK
18.139086500000001,I2C,0x20 + ACK
18.139178250000001,I2C,0x03 + ACK
18.139361250000000,I2C,Setup Write to [0x34] + ACK
18.139453000000000,I2C,0x30 + ACK
18.139544500000000,I2C,0x21 + ACK
18.139635999999999,I2C,0x00 + ACK
18.139809000000000,I2C,Setup Write to [0x1A] + ACK
18.139900749999999,I2C,0x18 + ACK
18.139992249999999,I2C,0x11 + ACK
18.140083749999999,I2C,0x00 + ACK
18.155708499999999,I2C,Setup Write to [0x34] + ACK
18.155800249999999,I2C,0x30 + ACK
18.155891749999999,I2C,0x20 + ACK
18.155983249999998,I2C,0x03 + ACK
18.156169500000001,I2C,Setup Write to [0x34] + ACK
18.156261000000001,I2C,0x30 + ACK
18.156352500000001,I2C,0x21 + ACK
18.156444250000000,I2C,0x00 + ACK
18.156617250000000,I2C,Setup Write to [0x1A] + ACK
18.156708999999999,I2C,0x18 + ACK
18.156800499999999,I2C,0x11 + ACK
18.156891999999999,I2C,0x00 + ACK
18.157085750000000,I2C,Setup Write to [0x34] + ACK
18.157177250000000,I2C,0x30 + ACK
18.157268750000000,I2C,0x14 + ACK
18.157360499999999,I2C,0x05 + ACK
18.175701249999999,I2C,Setup Write to [0x34] + ACK
18.175792999999999,I2C,0x30 + ACK
18.175884499999999,I2C,0x20 + ACK
18.175976250000001,I2C,0x03 + ACK
18.176162500000000,I2C,Setup Write to [0x34] + ACK
18.176254000000000,I2C,0x30 + ACK
18.176345749999999,I2C,0x21 + ACK
18.176437249999999,I2C,0x00 + ACK
18.176621500000000,I2C,Setup Write to [0x34] + ACK
18.176712999999999,I2C,0x30 + ACK
18.176804499999999,I2C,0x22 + ACK
18.176896249999999,I2C,0x00 + ACK
18.177560499999998,I2C,Setup Write to [0x34] + ACK
18.177651999999998,I2C,0x30 + ACK
18.177743499999998,I2C,0x20 + ACK
18.177835250000001,I2C,0x03 + ACK
18.178020249999999,I2C,Setup Write to [0x34] + ACK
18.178111749999999,I2C,0x30 + ACK
18.178203249999999,I2C,0x21 + ACK
18.178294999999999,I2C,0x00 + ACK
18.178477999999998,I2C,Setup Write to [0x34] + ACK
18.178569750000001,I2C,0x30 + ACK
18.178661250000001,I2C,0x22 + ACK
18.178753000000000,I2C,0x00 + ACK
18.178953750000002,I2C,Setup Write to [0x34] + ACK
18.179045250000001,I2C,0x30 + ACK
18.179136750000001,I2C,0x20 + ACK
18.179228500000001,I2C,0x03 + ACK
18.179411750000000,I2C,Setup Write to [0x34] + ACK
18.179503250000000,I2C,0x30 + ACK
18.179594750000000,I2C,0x21 + ACK
18.179686499999999,I2C,0x00 + ACK
18.179859250000000,I2C,Setup Write to [0x1A] + ACK
18.179950999999999,I2C,0x18 + ACK
18.180042499999999,I2C,0x11 + ACK
18.180133999999999,I2C,0x00 + ACK
18.402273500000000,I2C,Setup Read to [0x8D] + ACK
18.415967250000001,I2C,0x0C + ACK
18.416058750000001,I2C,0x08 + ACK
18.416150500000001,I2C,0x00 + NAK
18.416346999999998,I2C,Setup Write to [0x1A] + ACK
18.416438500000002,I2C,0x18 + ACK
18.416530250000001,I2C,0x10 + NAK
18.416621750000001,I2C,0x00 + ACK
18.416815249999999,I2C,Setup Write to [0x34] + ACK
18.416906749999999,I2C,0x30 + ACK
18.416998499999998,I2C,0x22 + ACK
18.417090000000002,I2C,0x00 + ACK
18.417729999999999,I2C,Setup Write to [0x1A] + ACK
18.417821499999999,I2C,0x18 + ACK
18.417913250000002,I2C,0x10 + ACK
18.418004750000001,I2C,0x01 + NAK
18.418200250000002,I2C,Setup Write to [0x34] + ACK
18.418291750000002,I2C,0x30 + ACK
18.418383250000002,I2C,0x21 + ACK
18.418475000000001,I2C,0x00 + ACK
18.418658250000000,I2C,Setup Write to [0x34] + ACK
18.418749750000000,I2C,0x30 + ACK
18.418841250000000,I2C,0x22 + ACK
18.418932999999999,I2C,0x00 + ACK
18.419125000000001,I2C,Setup Write to [0x1A] + ACK
18.419216500000001,I2C,0x18 + ACK
18.419308250000000,I2C,0x10 + ACK
18.419399750000000,I2C,0x01 + NAK
18.419593249999998,I2C,Setup Write to [0x34] + ACK
18.419684749999998,I2C,0x30 + ACK
18.419776250000002,I2C,0x21 + ACK
18.419868000000001,I2C,0x00 + ACK
18.420051250000000,I2C,Setup Write to [0x34] + ACK
18.420142750000000,I2C,0x30 + ACK
18.420234250000000,I2C,0x22 + ACK
18.420325999999999,I2C,0x00 + ACK
18.435945749999998,I2C,Setup Write to [0x34] + ACK
18.436037249999998,I2C,0x30 + ACK
18.436128750000002,I2C,0x20 + ACK
18.436220500000001,I2C,0x03 + ACK
18.436406500000000,I2C,Setup Write to [0x34] + ACK
18.436498250000000,I2C,0x30 + ACK
18.436589750000000,I2C,0x21 + ACK
18.436681249999999,I2C,0x00 + ACK
18.436864750000002,I2C,Setup Write to [0x34] + ACK
18.436956250000001,I2C,0x30 + ACK
18.437047750000001,I2C,0x22 + ACK
18.437139500000001,I2C,0x00 + ACK
18.455931249999999,I2C,Setup Write to [0x34] + ACK
18.456022999999998,I2C,0x30 + ACK
18.456114500000002,I2C,0x20 + ACK
18.456206000000002,I2C,0x03 + ACK
18.456392250000000,I2C,Setup Write to [0x34] + ACK
18.456483750000000,I2C,0x30 + ACK
18.456575250000000,I2C,0x21 + ACK
18.456666999999999,I2C,0x00 + ACK
18.456850249999999,I2C,Setup Write to [0x34] + ACK
18.456942000000002,I2C,0x30 + ACK
18.457033500000001,I2C,0x22 + ACK
18.457125000000001,I2C,0x00 + ACK
18.457770750000002,I2C,Setup Write to [0x34] + ACK
18.457862500000001,I2C,0x30 + ACK
18.457954000000001,I2C,0x20 + ACK
18.458045500000001,I2C,0x03 + ACK
18.458231000000001,I2C,Setup Write to [0x34] + ACK
18.458322500000001,I2C,0x30 + ACK
18.458414000000001,I2C,0x21 + ACK
18.458505750000000,I2C,0x00 + ACK
18.458689000000000,I2C,Setup Write to [0x34] + ACK
18.458780749999999,I2C,0x30 + ACK
18.458872249999999,I2C,0x22 + ACK
18.458963749999999,I2C,0x00 + ACK
18.459165500000001,I2C,Setup Write to [0x34] + ACK
18.459257000000001,I2C,0x30 + ACK
18.459348500000001,I2C,0x20 + ACK
18.459440250000000,I2C,0x03 + ACK
18.459623250000000,I2C,Setup Write to [0x34] + ACK
18.459714999999999,I2C,0x30 + ACK
18.459806499999999,I2C,0x21 + ACK
18.459897999999999,I2C,0x00 + ACK
18.460070999999999,I2C,Setup Write to [0x1A] + ACK
18.460162749999999,I2C,0x18 + ACK
18.460254249999998,I2C,0x11 + ACK
18.460345749999998,I2C,0x00 + ACK
18.475980000000000,I2C,Setup Write to [0x34] + ACK
18.476071749999999,I2C,0x30 + ACK
18.476163249999999,I2C,0x20 + ACK
18.476254749999999,I2C,0x03 + ACK
18.476441000000001,I2C,Setup Write to [0x34] + ACK
18.476532750000001,I2C,0x30 + ACK
18.476624250000000,I2C,0x21 + ACK
18.476716000000000,I2C,0x00 + ACK
18.476899499999998,I2C,Setup Write to [0x34] + ACK
18.476991000000002,I2C,0x30 + ACK
18.477082500000002,I2C,0x22 + ACK
18.477174250000001,I2C,0x00 + ACK
18.495964250000000,I2C,Setup Write to [0x1A] + ACK
18.496055750000000,I2C,0x18 + ACK
18.496147499999999,I2C,0x10 + ACK
18.496238999999999,I2C,0x01 + NAK
18.496435500000000,I2C,Setup Write to [0x34] + ACK
18.496527000000000,I2C,0x30 + ACK
18.496618750000000,I2C,0x21 + ACK
18.496710250000000,I2C,0x00 + ACK
18.496883499999999,I2C,Setup Write to [0x1A] + ACK
18.496974999999999,I2C,0x18 + ACK
18.497066749999998,I2C,0x11 + ACK
18.497158249999998,I2C,0x00 + ACK
18.497809499999999,I2C,Setup Write to [0x1A] + ACK
18.497901250000002,I2C,0x18 + ACK
18.497992750000002,I2C,0x10 + ACK
18.498084250000002,I2C,0x01 + NAK
18.498280500000000,I2C,Setup Write to [0x34] + ACK
18.498372000000000,I2C,0x30 + ACK
18.498463500000000,I2C,0x21 + ACK
18.498555249999999,I2C,0x00 + ACK
18.498728249999999,I2C,Setup Write to [0x1A] + ACK
18.498819749999999,I2C,0x18 + ACK
18.498911499999998,I2C,0x11 + ACK
18.499002999999998,I2C,0x00 + ACK
18.499214500000001,I2C,Setup Write to [0x34] + ACK
18.499306250000000,I2C,0x30 + ACK
18.499397750000000,I2C,0x20 + ACK
18.499489499999999,I2C,0x03 + ACK
18.499662250000000,I2C,Setup Write to [0x1A] + ACK
18.499753999999999,I2C,0x18 + ACK
18.499845499999999,I2C,0x10 + NAK
18.499936999999999,I2C,0x00 + ACK
18.500120249999998,I2C,Setup Write to [0x1A] + ACK
18.500211749999998,I2C,0x18 + ACK
18.500303500000001,I2C,0x11 + ACK
18.500395000000001,I2C,0x00 + ACK
18.516003000000001,I2C,Setup Write to [0x1A] + ACK
18.516094750000001,I2C,0x18 + ACK
18.516186250000001,I2C,0x10 + ACK
18.516277750000000,I2C,0x01 + NAK
18.516473999999999,I2C,Setup Write to [0x34] + ACK
18.516565750000002,I2C,0x30 + ACK
18.516657250000002,I2C,0x21 + ACK
18.516748750000001,I2C,0x00 + ACK
18.516932250000000,I2C,Setup Write to [0x34] + ACK
18.517023750000000,I2C,0x30 + ACK
18.517115250000000,I2C,0x22 + ACK
18.517206999999999,I2C,0x00 + ACK
18.535997999999999,I2C,Setup Write to [0x34] + ACK
18.536089499999999,I2C,0x30 + ACK
18.536180999999999,I2C,0x20 + ACK
18.536272749999998,I2C,0x03 + ACK
18.536448499999999,I2C,Setup Write to [0x1A] + ACK
18.536540250000002,I2C,0x18 + ACK
18.536631750000002,I2C,0x10 + NAK
18.536723250000001,I2C,0x00 + ACK
18.536906500000001,I2C,Setup Write to [0x1A] + ACK
18.536998000000001,I2C,0x18 + ACK
18.537089750000000,I2C,0x11 + ACK
18.537181250000000,I2C,0x00 + ACK
18.537838749999999,I2C,Setup Write to [0x34] + ACK
18.537930249999999,I2C,0x30 + ACK
18.538021749999999,I2C,0x20 + ACK
18.538113500000001,I2C,0x03 + ACK
18.538288000000001,I2C,Setup Write to [0x1A] + ACK
18.538379750000001,I2C,0x18 + ACK
18.538471250000001,I2C,0x10 + NAK
18.538562750000001,I2C,0x00 + ACK
18.538746000000000,I2C,Setup Write to [0x1A] + ACK
18.538837500000000,I2C,0x18 + ACK
18.538929249999999,I2C,0x11 + ACK
18.539020749999999,I2C,0x00 + ACK
18.539232250000001,I2C,Setup Write to [0x34] + ACK
18.539323750000001,I2C,0x30 + ACK
18.539415250000001,I2C,0x20 + ACK
18.539507000000000,I2C,0x03 + ACK
18.539690250000000,I2C,Setup Write to [0x34] + ACK
18.539781999999999,I2C,0x30 + ACK
18.539873499999999,I2C,0x21 + ACK
18.539964999999999,I2C,0x00 + ACK
18.540137999999999,I2C,Setup Write to [0x1A] + ACK
18.540229750000002,I2C,0x18 + ACK
18.540321250000002,I2C,0x11 + ACK
18.540412750000002,I2C,0x00 + ACK
18.556036750000001,I2C,Setup Write to [0x1A] + ACK
18.556128250000000,I2C,0x18 + ACK
18.556220000000000,I2C,0x10 + ACK
18.556311500000000,I2C,0x01 + NAK
18.556507750000002,I2C,Setup Write to [0x34] + ACK
18.556599500000001,I2C,0x30 + ACK
18.556691000000001,I2C,0x21 + ACK
18.556782500000001,I2C,0x00 + ACK
18.556965999999999,I2C,Setup Write to [0x34] + ACK
18.557057749999998,I2C,0x30 + ACK
18.557149249999998,I2C,0x22 + ACK
18.557240749999998,I2C,0x00 + ACK
18.576033249999998,I2C,Setup Write to [0x34] + ACK
18.576125000000001,I2C,0x30 + ACK
18.576216500000001,I2C,0x20 + ACK
18.576308000000001,I2C,0x03 + ACK
18.576494250000000,I2C,Setup Write to [0x34] + ACK
18.576585999999999,I2C,0x30 + ACK
18.576677499999999,I2C,0x21 + ACK
18.576769250000002,I2C,0x00 + ACK
18.576952500000001,I2C,Setup Write to [0x34] + ACK
18.577044000000001,I2C,0x30 + ACK
18.577135750000000,I2C,0x22 + ACK
18.577227250000000,I2C,0x00 + ACK
18.577875500000001,I2C,Setup Write to [0x34] + ACK
18.577967250000000,I2C,0x30 + ACK
18.578058750000000,I2C,0x20 + ACK
18.578150500000000,I2C,0x03 + ACK
18.578335750000001,I2C,Setup Write to [0x34] + ACK
18.578427250000001,I2C,0x30 + ACK
18.578519000000000,I2C,0x21 + ACK
18.578610500000000,I2C,0x00 + ACK
18.578793749999999,I2C,Setup Write to [0x34] + ACK
18.578885499999998,I2C,0x30 + ACK
18.578976999999998,I2C,0x22 + ACK
18.579068750000001,I2C,0x00 + ACK
18.579270999999999,I2C,Setup Write to [0x34] + ACK
18.579362499999998,I2C,0x30 + ACK
18.579453999999998,I2C,0x20 + ACK
18.579545750000001,I2C,0x03 + ACK
18.579728750000001,I2C,Setup Write to [0x34] + ACK
18.579820500000000,I2C,0x30 + ACK
18.579912000000000,I2C,0x21 + ACK
18.580003500000000,I2C,0x00 + ACK
18.580176500000000,I2C,Setup Write to [0x1A] + ACK
18.580268000000000,I2C,0x18 + ACK
18.580359750000000,I2C,0x11 + ACK
18.580451249999999,I2C,0x00 + ACK
18.596071250000001,I2C,Setup Write to [0x1A] + ACK
18.596162750000001,I2C,0x18 + ACK
18.596254500000001,I2C,0x10 + ACK
18.596346000000000,I2C,0x01 + NAK
18.596542750000001,I2C,Setup Write to [0x34] + ACK
18.596634250000001,I2C,0x30 + ACK
18.596725750000001,I2C,0x21 + ACK
18.596817500000000,I2C,0x00 + ACK
18.596990500000000,I2C,Setup Write to [0x1A] + ACK
18.597082250000000,I2C,0x18 + ACK
18.597173750000000,I2C,0x11 + ACK
18.597265250000000,I2C,0x00 + ACK
18.597448750000002,I2C,Setup Write to [0x1A] + ACK
18.597540250000002,I2C,0x18 + ACK
18.597632000000001,I2C,0x0A + ACK
18.597723500000001,I2C,0x01 + NAK
18.616052249999999,I2C,Setup Write to [0x1A] + ACK
18.616143749999999,I2C,0x18 + ACK
18.616235499999998,I2C,0x10 + ACK
18.616326999999998,I2C,0x01 + NAK
18.616523250000000,I2C,Setup Write to [0x34] + ACK
18.616614999999999,I2C,0x30 + ACK
18.616706499999999,I2C,0x21 + ACK
18.616797999999999,I2C,0x00 + ACK
18.616981249999998,I2C,Setup Write to [0x34] + ACK
18.617073000000001,I2C,0x30 + ACK
18.617164500000001,I2C,0x22 + ACK
18.617256000000001,I2C,0x00 + ACK
18.617513249999998,I2C,Setup Write to [0x34] + ACK
18.617604750000002,I2C,0x30 + ACK
18.617696250000002,I2C,0x20 + ACK
18.617788000000001,I2C,0x03 + ACK
18.617971499999999,I2C,Setup Write to [0x34] + ACK
18.618062999999999,I2C,0x30 + ACK
18.618154499999999,I2C,0x21 + ACK
18.618246249999999,I2C,0x00 + ACK
18.618429249999998,I2C,Setup Write to [0x34] + ACK
18.618521000000001,I2C,0x30 + ACK
18.618612500000001,I2C,0x22 + ACK
18.618704250000000,I2C,0x00 + ACK
18.618893499999999,I2C,Setup Write to [0x1A] + ACK
18.618984999999999,I2C,0x18 + ACK
18.619076750000001,I2C,0x10 + ACK
18.619168250000001,I2C,0x01 + NAK
18.619361749999999,I2C,Setup Write to [0x34] + ACK
18.619453249999999,I2C,0x30 + ACK
18.619544749999999,I2C,0x21 + ACK
18.619636499999999,I2C,0x00 + ACK
18.619819750000001,I2C,Setup Write to [0x34] + ACK
18.619911250000001,I2C,0x30 + ACK
18.620002750000001,I2C,0x22 + ACK
18.620094500000000,I2C,0x00 + ACK
18.652557000000002,I2C,Setup Write to [0x34] + ACK
18.652648500000002,I2C,0x30 + ACK
18.652740000000001,I2C,0x20 + ACK
18.652831750000001,I2C,0x03 + ACK
18.653017750000000,I2C,Setup Write to [0x34] + ACK
18.653109250000000,I2C,0x30 + ACK
18.653200750000000,I2C,0x21 + ACK
18.653292499999999,I2C,0x00 + ACK
18.653465499999999,I2C,Setup Write to [0x1A] + ACK
18.653557249999999,I2C,0x18 + ACK
18.653648749999999,I2C,0x11 + ACK
18.653740249999998,I2C,0x00 + ACK
18.672530750000000,I2C,Setup Write to [0x34] + ACK
18.672622499999999,I2C,0x30 + ACK
18.672713999999999,I2C,0x20 + ACK
18.672805749999998,I2C,0x03 + ACK
18.672992000000001,I2C,Setup Write to [0x34] + ACK
18.673083500000001,I2C,0x30 + ACK
18.673175000000001,I2C,0x21 + ACK
18.673266750000000,I2C,0x00 + ACK
18.673450750000001,I2C,Setup Write to [0x34] + ACK
18.673542250000001,I2C,0x30 + ACK
18.673633750000000,I2C,0x22 + ACK
18.673725500000000,I2C,0x00 + ACK
18.677125250000000,I2C,Setup Write to [0x34] + ACK
18.677216749999999,I2C,0x30 + ACK
18.677308249999999,I2C,0x20 + ACK
18.677399999999999,I2C,0x03 + ACK
18.677586000000002,I2C,Setup Write to [0x34] + ACK
18.677677750000001,I2C,0x30 + ACK
18.677769250000001,I2C,0x21 + ACK
18.677860750000001,I2C,0x00 + ACK
18.678044249999999,I2C,Setup Write to [0x34] + ACK
18.678135749999999,I2C,0x30 + ACK
18.678227249999999,I2C,0x22 + ACK
18.678318999999998,I2C,0x00 + ACK
18.678519250000001,I2C,Setup Write to [0x34] + ACK
18.678610750000001,I2C,0x30 + ACK
18.678702500000000,I2C,0x20 + ACK
18.678794000000000,I2C,0x03 + ACK
18.678967499999999,I2C,Setup Write to [0x1A] + ACK
18.679059250000002,I2C,0x18 + ACK
18.679150750000002,I2C,0x10 + NAK
18.679242250000001,I2C,0x00 + ACK
18.679425500000001,I2C,Setup Write to [0x1A] + ACK
18.679517000000001,I2C,0x18 + ACK
18.679608750000000,I2C,0x11 + ACK
18.679700250000000,I2C,0x00 + ACK
18.992123500000002,I2C,Setup Write to [0x34] + ACK
18.992215250000001,I2C,0x30 + ACK
18.992306750000001,I2C,0x07 + ACK
18.992398500000000,I2C,0x00 + ACK
18.992726500000000,I2C,Setup Write to [0x34] + ACK
18.992818249999999,I2C,0x30 + ACK
18.992909749999999,I2C,0x09 + ACK
18.993001249999999,I2C,0x02 + ACK
18.993177750000001,I2C,Setup Write to [0x1A] + ACK
18.993269250000001,I2C,0x18 + ACK
18.993361000000000,I2C,0x05 + ACK
18.993452500000000,I2C,0x78 + ACK
18.993637499999998,I2C,Setup Write to [0x1A] + ACK
18.993728999999998,I2C,0x18 + ACK
18.993820750000001,I2C,0x07 + NAK
18.993912250000001,I2C,0x00 + ACK
18.994107499999998,I2C,Setup Write to [0x34] + ACK
18.994198999999998,I2C,0x30 + ACK
18.994290750000001,I2C,0x10 + ACK
18.994382250000001,I2C,0x21 + ACK
18.994557000000000,I2C,Setup Write to [0x1A] + ACK
18.994648500000000,I2C,0x18 + ACK
18.994740250000000,I2C,0x09 + ACK
18.994831749999999,I2C,0x32 + ACK
18.995016750000001,I2C,Setup Write to [0x1A] + ACK
18.995108500000001,I2C,0x18 + ACK
18.995200000000001,I2C,0x0A + ACK
18.995291500000000,I2C,0x10 + ACK
18.995486750000001,I2C,Setup Write to [0x34] + ACK
18.995578500000001,I2C,0x30 + ACK
18.995670000000000,I2C,0x16 + ACK
18.995761500000000,I2C,0x09 + ACK
18.995946499999999,I2C,Setup Write to [0x34] + ACK
18.996037999999999,I2C,0x30 + ACK
18.996129750000001,I2C,0x16 + ACK
18.996221250000001,I2C,0x09 + ACK
18.996406250000000,I2C,Setup Write to [0x34] + ACK
18.996497999999999,I2C,0x30 + ACK
18.996589499999999,I2C,0x18 + ACK
18.996681250000002,I2C,0x6D + ACK
18.996855750000002,I2C,Setup Write to [0x1A] + ACK
18.996947500000001,I2C,0x18 + ACK
18.997039000000001,I2C,0x0C + NAK
18.997130500000001,I2C,0x02 + ACK
18.997325750000002,I2C,Setup Write to [0x34] + ACK
18.997417250000002,I2C,0x30 + ACK
18.997508750000001,I2C,0x1A + ACK
18.997600500000001,I2C,0x00 + ACK
18.997785499999999,I2C,Setup Write to [0x34] + ACK
18.997876999999999,I2C,0x30 + ACK
18.997968749999998,I2C,0x1B + ACK
18.998060250000002,I2C,0x00 + ACK
18.998245250000000,I2C,Setup Write to [0x34] + ACK
18.998336750000000,I2C,0x30 + ACK
18.998428250000000,I2C,0x1C + ACK
18.998519999999999,I2C,0x30 + ACK
18.998694499999999,I2C,Setup Write to [0x1A] + ACK
18.998785999999999,I2C,0x18 + ACK
18.998877749999998,I2C,0x0E + NAK
18.998969249999998,I2C,0x08 + NAK
18.999164749999998,I2C,Setup Write to [0x34] + ACK
18.999256249999998,I2C,0x30 + ACK
18.999348000000001,I2C,0x20 + ACK
18.999439500000001,I2C,0x01 + ACK
18.999614500000000,I2C,Setup Write to [0x1A] + ACK
18.999706249999999,I2C,0x18 + ACK
18.999797749999999,I2C,0x10 + NAK
18.999889249999999,I2C,0x00 + ACK
19.000084749999999,I2C,Setup Write to [0x34] + ACK
19.000176249999999,I2C,0x30 + ACK
19.000267749999999,I2C,0x46 + ACK
19.000359499999998,I2C,0xE1 + ACK
19.000544500000000,I2C,Setup Write to [0x34] + ACK
19.000636000000000,I2C,0x30 + ACK
19.000727500000000,I2C,0x5C + ACK
19.000819249999999,I2C,0x18 + ACK
19.000993749999999,I2C,Setup Write to [0x1A] + ACK
19.001085499999999,I2C,0x18 + ACK
19.001176999999998,I2C,0x2F + ACK
19.001268499999998,I2C,0x10 + ACK
19.001453750000000,I2C,Setup Write to [0x1A] + ACK
19.001545499999999,I2C,0x18 + ACK
19.001636999999999,I2C,0x38 + ACK
19.001728499999999,I2C,0x01 + ACK
19.001923750000000,I2C,Setup Write to [0x34] + ACK
19.002015249999999,I2C,0x30 + ACK
19.002106749999999,I2C,0x71 + ACK
19.002198499999999,I2C,0x11 + ACK
19.004569499999999,I2C,Setup Write to [0x34] + ACK
19.004661250000002,I2C,0x30 + ACK
19.004752750000002,I2C,0x9B + ACK
19.004844250000001,I2C,0x10 + ACK
19.005039000000000,I2C,Setup Write to [0x34] + ACK
19.005130500000000,I2C,0x30 + ACK
19.005222000000000,I2C,0x9C + ACK
19.005313749999999,I2C,0x22 + ACK
19.005489000000001,I2C,Setup Write to [0x1A] + ACK
19.005580750000000,I2C,0x18 + ACK
19.005672250000000,I2C,0x51 + ACK
19.005763750000000,I2C,0x01 + ACK
19.005959250000000,I2C,Setup Write to [0x34] + ACK
19.006050750000000,I2C,0x30 + ACK
19.006142250000000,I2C,0xA6 + ACK
19.006233999999999,I2C,0x20 + ACK
19.006408749999999,I2C,Setup Write to [0x1A] + ACK
19.006500249999998,I2C,0x18 + ACK
19.006592000000001,I2C,0x54 + ACK
19.006683500000001,I2C,0x10 + ACK
19.006878749999998,I2C,Setup Write to [0x34] + ACK
19.006970249999998,I2C,0x30 + ACK
19.007061749999998,I2C,0xAA + ACK
19.007153500000001,I2C,0x20 + ACK
19.007338499999999,I2C,Setup Write to [0x34] + ACK
19.007430249999999,I2C,0x30 + ACK
19.007521749999999,I2C,0xAC + ACK
19.007613249999999,I2C,0x20 + ACK
19.007788000000001,I2C,Setup Write to [0x1A] + ACK
19.007879500000001,I2C,0x18 + ACK
19.007971250000001,I2C,0x58 + ACK
19.008062750000001,I2C,0x21 + NAK
19.008258000000001,I2C,Setup Write to [0x34] + ACK
19.008349500000001,I2C,0x31 + ACK
19.008441000000001,I2C,0x19 + ACK
19.008532750000001,I2C,0x9E + ACK
19.010714249999999,I2C,Setup Write to [0x34] + ACK
19.010805999999999,I2C,0x31 + ACK
19.010897499999999,I2C,0x1C + ACK
19.010988999999999,I2C,0x1E + ACK
19.011182500000000,I2C,Setup Write to [0x34] + ACK
19.011274000000000,I2C,0x31 + ACK
19.011365500000000,I2C,0x1E + ACK
19.011457249999999,I2C,0x08 + ACK
19.011642500000001,I2C,Setup Write to [0x34] + ACK
19.011734000000001,I2C,0x31 + ACK
19.011825750000000,I2C,0x28 + ACK
19.011917250000000,I2C,0x05 + ACK
19.012309750000000,I2C,Setup Write to [0x1A] + ACK
19.012401250000000,I2C,0x18 + NAK
19.012492999999999,I2C,0x1E + NAK
19.012584499999999,I2C,0x41 + NAK
19.012783500000001,I2C,Setup Write to [0x34] + ACK
19.012875000000001,I2C,0x31 + ACK
19.012966750000000,I2C,0x50 + ACK
19.013058250000000,I2C,0x03 + ACK
19.013233499999998,I2C,Setup Write to [0x1A] + ACK
19.013324999999998,I2C,0x18 + NAK
19.013416750000001,I2C,0x2F + ACK
19.013508250000001,I2C,0x0D + ACK
19.013703499999998,I2C,Setup Write to [0x34] + ACK
19.013794999999998,I2C,0x31 + ACK
19.013886500000002,I2C,0x64 + ACK
19.013978250000001,I2C,0x1A + ACK
19.014163000000000,I2C,Setup Write to [0x34] + ACK
19.014254749999999,I2C,0x31 + ACK
19.014346249999999,I2C,0x7C + ACK
19.014437749999999,I2C,0x00 + ACK
19.014623000000000,I2C,Setup Write to [0x34] + ACK
19.014714500000000,I2C,0x31 + ACK
19.014806249999999,I2C,0x7E + ACK
19.014897749999999,I2C,0x00 + ACK
19.015082499999998,I2C,Setup Write to [0x34] + ACK
19.015174250000001,I2C,0x31 + ACK
19.015265750000001,I2C,0x7E + ACK
19.015357500000000,I2C,0x00 + ACK
19.015542499999999,I2C,Setup Write to [0x34] + ACK
19.015633999999999,I2C,0x32 + ACK
19.015725499999999,I2C,0xB8 + ACK
19.015817250000001,I2C,0x50 + ACK
19.016002000000000,I2C,Setup Write to [0x34] + ACK
19.016093750000000,I2C,0x32 + ACK
19.016185249999999,I2C,0xB9 + ACK
19.016276749999999,I2C,0x10 + ACK
19.016451499999999,I2C,Setup Write to [0x1A] + ACK
19.016542999999999,I2C,0x19 + ACK
19.016634750000001,I2C,0x5D + ACK
19.016726250000001,I2C,0x00 + ACK
19.016911250000000,I2C,Setup Write to [0x1A] + ACK
19.017002750000000,I2C,0x19 + ACK
19.017094499999999,I2C,0x5D + NAK
19.017185999999999,I2C,0x02 + ACK
19.017381250000000,I2C,Setup Write to [0x34] + ACK
19.017472750000000,I2C,0x32 + ACK
19.017564250000000,I2C,0xC8 + ACK
19.017655999999999,I2C,0x50 + ACK
19.017840750000001,I2C,Setup Write to [0x34] + ACK
19.017932500000001,I2C,0x32 + ACK
19.018024000000000,I2C,0xC9 + ACK
19.018115500000000,I2C,0x10 + ACK
19.018300750000002,I2C,Setup Write to [0x34] + ACK
19.018392250000002,I2C,0x32 + ACK
19.018483750000001,I2C,0xCA + ACK
19.018575500000001,I2C,0x00 + ACK
19.018760499999999,I2C,Setup Write to [0x34] + ACK
19.018851999999999,I2C,0x32 + ACK
19.018943499999999,I2C,0xCB + ACK
19.019035250000002,I2C,0x04 + ACK
19.019220250000000,I2C,Setup Write to [0x34] + ACK
19.019311750000000,I2C,0x33 + ACK
19.019403250000000,I2C,0x2C + ACK
19.019494999999999,I2C,0xD3 + ACK
19.019669749999998,I2C,Setup Write to [0x1A] + ACK
19.019761249999998,I2C,0x19 + NAK
19.019853000000001,I2C,0x16 + NAK
19.019944500000001,I2C,0x08 + ACK
19.020140000000001,I2C,Setup Write to [0x34] + ACK
19.020231500000001,I2C,0x33 + ACK
19.020323000000001,I2C,0x2E + ACK
19.020414750000000,I2C,0x0D + ACK
19.020589500000000,I2C,Setup Write to [0x1A] + ACK
19.020681000000000,I2C,0x19 + NAK
19.020772749999999,I2C,0x2C + ACK
19.020864249999999,I2C,0x03 + ACK
19.021059500000000,I2C,Setup Write to [0x34] + ACK
19.021151000000000,I2C,0x33 + ACK
19.021242749999999,I2C,0x59 + ACK
19.021334249999999,I2C,0xE1 + ACK
19.021519250000001,I2C,Setup Write to [0x34] + ACK
19.021610750000001,I2C,0x33 + ACK
19.021702500000000,I2C,0x5A + ACK
19.021794000000000,I2C,0x11 + ACK
19.021979250000001,I2C,Setup Write to [0x34] + ACK
19.022070750000001,I2C,0x33 + ACK
19.022162250000001,I2C,0x60 + ACK
19.022254000000000,I2C,0x1E + ACK
19.022659999999998,I2C,Setup Write to [0x34] + ACK
19.022751499999998,I2C,0x33 + ACK
19.022843000000002,I2C,0x61 + ACK
19.022934750000001,I2C,0x61 + ACK
19.023124750000001,I2C,Setup Write to [0x34] + ACK
19.023216250000001,I2C,0x33 + ACK
19.023308000000000,I2C,0x62 + ACK
19.023399500000000,I2C,0x10 + ACK
19.023585499999999,I2C,Setup Write to [0x34] + ACK
19.023676999999999,I2C,0x33 + ACK
19.023768499999999,I2C,0xB0 + ACK
19.023860249999998,I2C,0x50 + ACK
19.024045250000000,I2C,Setup Write to [0x34] + ACK
19.024136750000000,I2C,0x33 + ACK
19.024228250000000,I2C,0xB2 + ACK
19.024319999999999,I2C,0x1A + ACK
19.024494749999999,I2C,Setup Write to [0x1A] + ACK
19.024586249999999,I2C,0x19 + NAK
19.024678000000002,I2C,0x59 + NAK
19.024769500000001,I2C,0x02 + ACK
19.062335999999998,I2C,Setup Write to [0x34] + ACK
19.062427499999998,I2C,0x30 + ACK
19.062519000000002,I2C,0x00 + ACK
19.062610750000001,I2C,0x00 + ACK
19.062795000000001,I2C,Setup Write to [0x1A] + ACK
19.062886500000001,I2C,0x18 + ACK
19.062978250000000,I2C,0x01 + ACK
19.063069750000000,I2C,0x00 + ACK
19.063266500000001,I2C,Setup Write to [0x34] + ACK
19.063358000000001,I2C,0x30 + ACK
19.063449500000001,I2C,0x49 + ACK
19.063541250000000,I2C,0x0A + ACK
19.701066749999999,I2C,Setup Write to [0x34] + ACK
19.701158499999998,I2C,0x30 + ACK
19.701250000000002,I2C,0x20 + ACK
19.701341500000002,I2C,0x4B + ACK
19.701527750000000,I2C,Setup Write to [0x34] + ACK
19.701619250000000,I2C,0x30 + ACK
19.701710750000000,I2C,0x21 + ACK
19.701802499999999,I2C,0x02 + ACK
19.701975500000000,I2C,Setup Write to [0x1A] + ACK
19.702067000000000,I2C,0x18 + ACK
19.702158749999999,I2C,0x11 + ACK
19.702250249999999,I2C,0x00 + ACK
19.702433500000001,I2C,Setup Write to [0x1A] + ACK
19.702525000000001,I2C,0x18 + ACK
19.702616750000001,I2C,0x0A + ACK
19.702708250000001,I2C,0x00 + ACK
19.702902250000001,I2C,Setup Write to [0x34] + ACK
19.702993750000001,I2C,0x30 + ACK
19.703085250000001,I2C,0x18 + ACK
19.703177000000000,I2C,0x47 + ACK
19.703350000000000,I2C,Setup Write to [0x1A] + ACK
19.703441500000000,I2C,0x18 + ACK
19.703533250000000,I2C,0x0C + NAK
19.703624749999999,I2C,0x02 + NAK
19.703818250000001,I2C,Setup Write to [0x34] + ACK
19.703909750000001,I2C,0x30 + ACK
19.704001250000001,I2C,0x1A + ACK
19.704093000000000,I2C,0x00 + ACK
19.734635999999998,I2C,Setup Write to [0x1A] + ACK
19.734727500000002,I2C,0x18 + ACK
19.734819250000001,I2C,0x10 + ACK
19.734910750000001,I2C,0x6D + ACK
19.735107750000001,I2C,Setup Write to [0x34] + ACK
19.735199250000001,I2C,0x30 + ACK
19.735290750000001,I2C,0x09 + ACK
19.735382500000000,I2C,0x02 + ACK
19.774692750000000,I2C,Setup Write to [0x34] + ACK
19.774784499999999,I2C,0x30 + ACK
19.774875999999999,I2C,0x20 + ACK
19.774967499999999,I2C,0xED + ACK
19.814736249999999,I2C,Setup Write to [0x34] + ACK
19.814827749999999,I2C,0x30 + ACK
19.814919249999999,I2C,0x20 + ACK
19.815010999999998,I2C,0x00 + ACK
19.815187250000001,I2C,Setup Write to [0x1A] + ACK
19.815279000000000,I2C,0x18 + ACK
19.815370500000000,I2C,0x10 + NAK
19.815462000000000,I2C,0x01 + NAK
19.854764249999999,I2C,Setup Write to [0x34] + ACK
19.854855749999999,I2C,0x30 + ACK
19.854947249999999,I2C,0x20 + ACK
19.855039000000001,I2C,0x9A + ACK
19.855225250000000,I2C,Setup Write to [0x34] + ACK
19.855316750000000,I2C,0x30 + ACK
19.855408250000000,I2C,0x21 + ACK
19.855499999999999,I2C,0x02 + ACK
19.894795500000001,I2C,Setup Write to [0x34] + ACK
19.894887000000001,I2C,0x30 + ACK
19.894978750000000,I2C,0x20 + ACK
19.895070250000000,I2C,0x07 + ACK
19.934828249999999,I2C,Setup Write to [0x34] + ACK
19.934919749999999,I2C,0x30 + ACK
19.935011249999999,I2C,0x20 + ACK
19.935103000000002,I2C,0x54 + ACK
19.935289250000000,I2C,Setup Write to [0x34] + ACK
19.935380750000000,I2C,0x30 + ACK
19.935472250000000,I2C,0x21 + ACK
19.935563999999999,I2C,0x01 + ACK
19.974847000000000,I2C,Setup Write to [0x1A] + ACK
19.974938500000000,I2C,0x18 + ACK
19.975030250000000,I2C,0x10 + ACK
19.975121750000000,I2C,0x35 + NAK
19.975318500000000,I2C,Setup Write to [0x34] + ACK
19.975410000000000,I2C,0x30 + ACK
19.975501500000000,I2C,0x21 + ACK
19.975593249999999,I2C,0x00 + ACK
20.014886250000000,I2C,Setup Write to [0x1A] + ACK
20.014977999999999,I2C,0x18 + ACK
20.015069499999999,I2C,0x10 + ACK
20.015160999999999,I2C,0x00 + NAK
20.015357999999999,I2C,Setup Write to [0x34] + ACK
20.015449499999999,I2C,0x30 + ACK
20.015540999999999,I2C,0x14 + ACK
20.015632750000002,I2C,0x02 + ACK
20.054938249999999,I2C,Setup Write to [0x34] + ACK
20.055029749999999,I2C,0x30 + ACK
20.055121249999999,I2C,0x14 + ACK
20.055212999999998,I2C,0x07 + ACK
20.094964500000000,I2C,Setup Write to [0x34] + ACK
20.095056000000000,I2C,0x30 + ACK
20.095147499999999,I2C,0x14 + ACK
20.095239249999999,I2C,0x0A + ACK
20.134999749999999,I2C,Setup Write to [0x1A] + ACK
20.135091500000001,I2C,0x18 + ACK
20.135183000000001,I2C,0x0A + ACK
20.135274500000001,I2C,0x06 + ACK
20.175030499999998,I2C,Setup Write to [0x1A] + ACK
20.175122000000002,I2C,0x18 + ACK
20.175213750000001,I2C,0x0A + ACK
20.175305250000001,I2C,0x07 + ACK
20.215079750000001,I2C,Setup Write to [0x34] + ACK
20.215171500000000,I2C,0x30 + ACK
20.215263000000000,I2C,0x14 + ACK
20.215354500000000,I2C,0x0F + ACK
20.295127749999999,I2C,Setup Write to [0x1A] + ACK
20.295219249999999,I2C,0x18 + ACK
20.295311000000002,I2C,0x0A + ACK
20.295402500000002,I2C,0x07 + ACK
20.335165000000000,I2C,Setup Write to [0x34] + ACK
20.335256500000000,I2C,0x30 + ACK
20.335348249999999,I2C,0x14 + ACK
20.335439749999999,I2C,0x0D + ACK
20.415233000000001,I2C,Setup Write to [0x34] + ACK
20.415324750000000,I2C,0x30 + ACK
20.415416250000000,I2C,0x14 + ACK
20.415507999999999,I2C,0x0C + ACK
20.455260249999998,I2C,Setup Write to [0x34] + ACK
20.455351749999998,I2C,0x30 + ACK
20.455443500000001,I2C,0x14 + ACK
20.455535000000001,I2C,0x0B + ACK
20.495301999999999,I2C,Setup Write to [0x34] + ACK
20.495393499999999,I2C,0x30 + ACK
20.495484999999999,I2C,0x14 + ACK
20.495576750000001,I2C,0x0A + ACK
20.535325749999998,I2C,Setup Write to [0x1A] + ACK
20.535417249999998,I2C,0x18 + ACK
20.535509000000001,I2C,0x0A + ACK
20.535600500000001,I2C,0x04 + NAK
20.655448750000001,I2C,Setup Write to [0x34] + ACK
20.655540250000001,I2C,0x30 + ACK
20.655631750000001,I2C,0x14 + ACK
20.655723500000001,I2C,0x08 + ACK
20.895642500000001,I2C,Setup Write to [0x1A] + ACK
20.895734250000000,I2C,0x18 + ACK
20.895825750000000,I2C,0x0A + ACK
20.895917250000000,I2C,0x03 + NAK
23.738057250000001,I2C,Setup Write to [0x34] + ACK
23.738148750000001,I2C,0x30 + ACK
23.738240250000000,I2C,0x20 + ACK
23.738332000000000,I2C,0x03 + ACK
23.738518500000001,I2C,Setup Write to [0x34] + ACK
23.738610000000001,I2C,0x30 + ACK
23.738701500000001,I2C,0x14 + ACK
23.738793250000001,I2C,0x00 + ACK
23.738976999999998,I2C,Setup Write to [0x34] + ACK
23.739068499999998,I2C,0x30 + ACK
23.739159999999998,I2C,0x18 + ACK
23.739251750000001,I2C,0xD9 + ACK
23.739435000000000,I2C,Setup Write to [0x34] + ACK
23.739526500000000,I2C,0x30 + ACK
23.739618000000000,I2C,0x19 + ACK
23.739709749999999,I2C,0x06 + ACK
23.881987250000002,I2C,Setup Write to [0x34] + ACK
23.882078750000002,I2C,0x30 + ACK
23.882170500000001,I2C,0x14 + ACK
23.882262000000001,I2C,0x07 + ACK
23.882448499999999,I2C,Setup Write to [0x34] + ACK
23.882539999999999,I2C,0x30 + ACK
23.882631499999999,I2C,0x18 + ACK
23.882723250000002,I2C,0x47 + ACK
23.882906500000001,I2C,Setup Write to [0x34] + ACK
23.882998250000000,I2C,0x30 + ACK
23.883089750000000,I2C,0x19 + ACK
23.883181499999999,I2C,0x05 + ACK
24.294238750000002,I2C,Setup Write to [0x34] + ACK
24.294330250000002,I2C,0x30 + ACK
24.294421750000001,I2C,0x14 + ACK
24.294513500000001,I2C,0x08 + ACK
24.414341749999998,I2C,Setup Write to [0x34] + ACK
24.414433249999998,I2C,0x30 + ACK
24.414524750000002,I2C,0x14 + ACK
24.414616500000001,I2C,0x09 + ACK
24.534439750000001,I2C,Setup Write to [0x34] + ACK
24.534531500000000,I2C,0x30 + ACK
24.534623000000000,I2C,0x14 + ACK
24.534714749999999,I2C,0x0A + ACK
24.654541500000001,I2C,Setup Write to [0x34] + ACK
24.654633000000000,I2C,0x30 + ACK
24.654724500000000,I2C,0x14 + ACK
24.654816250000000,I2C,0x0B + ACK
24.814679999999999,I2C,Setup Write to [0x34] + ACK
24.814771499999999,I2C,0x30 + ACK
24.814862999999999,I2C,0x14 + ACK
24.814954749999998,I2C,0x0C + ACK
24.974800999999999,I2C,Setup Write to [0x34] + ACK
24.974892749999999,I2C,0x30 + ACK
24.974984249999999,I2C,0x14 + ACK
24.975075749999998,I2C,0x0D + ACK
25.335109500000002,I2C,Setup Write to [0x1A] + ACK
25.335201000000001,I2C,0x18 + ACK
25.335292750000001,I2C,0x0A + ACK
25.335384250000001,I2C,0x07 + ACK
27.504096499999999,I2C,Setup Read to [0x8D] + ACK
41.869160999999998,I2C,0x0C + ACK
41.869252500000002,I2C,0x05 + ACK
41.869344249999997,I2C,0x03 + NAK
41.989181500000001,I2C,Setup Write to [0x1A] + ACK
41.989272999999997,I2C,0x18 + ACK
41.989364750000000,I2C,0x0A + ACK
41.989456250000003,I2C,0x08 + ACK
42.109295500000002,I2C,Setup Write to [0x1A] + ACK
42.109386999999998,I2C,0x18 + ACK
42.109478750000001,I2C,0x0A + ACK
42.109570249999997,I2C,0x08 + NAK
42.309465750000001,I2C,Setup Write to [0x34] + ACK
42.309557499999997,I2C,0x30 + ACK
42.309649000000000,I2C,0x14 + ACK
42.309740499999997,I2C,0x12 + ACK
42.669769250000002,I2C,Setup Write to [0x34] + ACK
42.669860749999998,I2C,0x30 + ACK
42.669952250000001,I2C,0x14 + ACK
42.670043999999997,I2C,0x13 + ACK
44.271128500000003,I2C,Setup Write to [0x34] + ACK
44.271220249999999,I2C,0x30 + ACK
44.271311750000002,I2C,0x14 + ACK
44.271403499999998,I2C,0x12 + ACK
44.991744250000004,I2C,Setup Write to [0x34] + ACK
44.991835999999999,I2C,0x30 + ACK
44.991927500000003,I2C,0x14 + ACK
44.992018999999999,I2C,0x11 + ACK
45.792421249999997,I2C,Setup Write to [0x34] + ACK
45.792513000000000,I2C,0x30 + ACK
45.792604500000003,I2C,0x14 + ACK
45.792696249999999,I2C,0x10 + ACK
61.628715499999998,I2C,0xFF + Missing ACK/NAK
84.865517999999994,I2C,Setup Write to [0x1A] + ACK
84.865609750000004,I2C,0x18 + ACK
84.865701250000001,I2C,0x0A + ACK
84.865792749999997,I2C,0x07 + NAK
87.908083500000004,I2C,Setup Write to [0x1A] + ACK
87.908175249999999,I2C,0x18 + ACK
87.908266749999996,I2C,0x0A + ACK
87.908358250000006,I2C,0x08 + ACK
